EC-Lab ASCII FILE
Nb header lines : 62                          

Staircase Potentio Electrochemical Impedance Spectroscopy (Mott-Schottky)

Run on channel : 1 (SN 3784)
User : 
Electrode connection : standard
Ewe ctrl range : min = -10.00 V, max = 10.00 V
Ewe,I filtering : 50 kHz
Safety Limits :
	Do not start on E overload
Channel : Grounded
Acquisition started on : 03/11/2021 12:38:42
Saved on :
	File : Hem1_EIS-back_dark.mpr
	Directory : Z:\group\Alexander\Hematite\Electrochemistry\210311\
	Host : 192.168.10.100
Device : SP-300 (SN 0654)
Address : 192.168.10.103
EC-Lab for windows v11.27 (software)
Internet server v11.25 (firmware)
Command interpretor v11.27 (firmware)
Electrode material : 
Initial state : 
Electrolyte : 
Comments : 
Cable : standard
Electrode surface area : 0.001 cm²
Characteristic mass : 0.001 g
Equivalent Weight : 0.000 g/eq.
Density : 0.000 g/cm3
Record EIS quality indicators
Cycle Definition : Charge/Discharge alternance
Multi Sine          Single sine         
Ei (V)              -0.4000             
vs.                 Ref                 
ts (h:m:s)          0:00:5.0000         
record              1                   
dI                  0.000               
unit dI             mA                  
dt (s)              0.100               
fi                  1.000               
unit fi             MHz                 
ff                  0.200               
unit ff             Hz                  
Nd                  6                   
Points              per decade          
spacing             Logarithmic         
Va (mV)             25.0                
pw                  0.10                
Na                  2                   
corr                0                   
E range min (V)     -10.000             
E range max (V)     10.000              
I Range             Auto                
Bandwidth           8                   
Ef (V)              0.6000              
vs.                 Ref                 
N                   40                  

freq/Hz	Re(Z)/Ohm	-Im(Z)/Ohm	|Z|/Ohm	Phase(Z)/deg	time/s	<Ewe>/V	<I>/mA	Cs/µF	Cs-2/µF-2	Cp/µF	Cp-2/µF-2	cycle number	I Range	|Ewe|/V	|I|/A	(Q-Qo)/mA.h	THD Ewe/%	NSD Ewe/%	NSR Ewe/%	THD I/%	NSD I/%	NSR I/%	Re(Y)/Ohm-1	Im(Y)/Ohm-1	|Y|/Ohm-1	Phase(Y)/deg	<I>/mA	dq/mA.h	
0.0000000E+000	0.0000000E+000	0.0000000E+000	0.0000000E+000	0.0000000E+000	3.806000181066338E-001	-4.0018561E-001	-1.6272778E-003	0.0000000E+000	0.0000000E+000	0.0000000E+000	0.0000000E+000	1.000000000000000E+000	41	0.0000000E+000	0.0000000E+000	-4.280185521487409E-008	1.2061381E-001	2.6808565E-002	2.3284738E-001	3.3936054E+001	8.0211143E+001	3.4590038E+001	0.0000000E+000	0.0000000E+000	0.0000000E+000	0.0000000E+000	0.000000000000000E+000	-4.280185521487409E-008
0.0000000E+000	0.0000000E+000	0.0000000E+000	0.0000000E+000	0.0000000E+000	4.806000228563789E-001	-4.0017790E-001	-1.8771309E-003	0.0000000E+000	0.0000000E+000	0.0000000E+000	0.0000000E+000	1.000000000000000E+000	42	0.0000000E+000	0.0000000E+000	-7.605360092974125E-008	1.2061381E-001	2.6808565E-002	2.3284738E-001	3.3936054E+001	8.0211143E+001	3.4590038E+001	0.0000000E+000	0.0000000E+000	0.0000000E+000	0.0000000E+000	-1.197062788877786E-003	-3.325174571486715E-008
0.0000000E+000	0.0000000E+000	0.0000000E+000	0.0000000E+000	0.0000000E+000	5.816000276536215E-001	-4.0017831E-001	-1.9270617E-003	0.0000000E+000	0.0000000E+000	0.0000000E+000	0.0000000E+000	1.000000000000000E+000	42	0.0000000E+000	0.0000000E+000	-1.274428681664656E-007	1.2061381E-001	2.6808565E-002	2.3284738E-001	3.3936054E+001	8.0211143E+001	3.4590038E+001	0.0000000E+000	0.0000000E+000	0.0000000E+000	0.0000000E+000	-1.831696566981337E-003	-5.138926723672437E-008
0.0000000E+000	0.0000000E+000	0.0000000E+000	0.0000000E+000	0.0000000E+000	6.816000324033666E-001	-4.0017545E-001	-1.9410769E-003	0.0000000E+000	0.0000000E+000	0.0000000E+000	0.0000000E+000	1.000000000000000E+000	42	0.0000000E+000	0.0000000E+000	-1.793119667180715E-007	1.2061381E-001	2.6808565E-002	2.3284738E-001	3.3936054E+001	8.0211143E+001	3.4590038E+001	0.0000000E+000	0.0000000E+000	0.0000000E+000	0.0000000E+000	-1.867287459166418E-003	-5.186909855160592E-008
0.0000000E+000	0.0000000E+000	0.0000000E+000	0.0000000E+000	0.0000000E+000	7.816000371531118E-001	-4.0017432E-001	-1.9445152E-003	0.0000000E+000	0.0000000E+000	0.0000000E+000	0.0000000E+000	1.000000000000000E+000	42	0.0000000E+000	0.0000000E+000	-2.294359517097872E-007	1.2061381E-001	2.6808565E-002	2.3284738E-001	3.3936054E+001	8.0211143E+001	3.4590038E+001	0.0000000E+000	0.0000000E+000	0.0000000E+000	0.0000000E+000	-1.804463373994354E-003	-5.012398499171570E-008
0.0000000E+000	0.0000000E+000	0.0000000E+000	0.0000000E+000	0.0000000E+000	8.826000419503544E-001	-4.0016732E-001	-1.9350611E-003	0.0000000E+000	0.0000000E+000	0.0000000E+000	0.0000000E+000	1.000000000000000E+000	42	0.0000000E+000	0.0000000E+000	-2.815757258663957E-007	1.2061381E-001	2.6808565E-002	2.3284738E-001	3.3936054E+001	8.0211143E+001	3.4590038E+001	0.0000000E+000	0.0000000E+000	0.0000000E+000	0.0000000E+000	-1.858447307409582E-003	-5.213977415660841E-008
0.0000000E+000	0.0000000E+000	0.0000000E+000	0.0000000E+000	0.0000000E+000	9.836000467475969E-001	-4.0017709E-001	-1.9296390E-003	0.0000000E+000	0.0000000E+000	0.0000000E+000	0.0000000E+000	1.000000000000000E+000	42	0.0000000E+000	0.0000000E+000	-3.316378563849867E-007	1.2061381E-001	2.6808565E-002	2.3284738E-001	3.3936054E+001	8.0211143E+001	3.4590038E+001	0.0000000E+000	0.0000000E+000	0.0000000E+000	0.0000000E+000	-1.784392686205575E-003	-5.006213051859101E-008
0.0000000E+000	0.0000000E+000	0.0000000E+000	0.0000000E+000	0.0000000E+000	1.083600051497342E+000	-4.0017119E-001	-1.9190874E-003	0.0000000E+000	0.0000000E+000	0.0000000E+000	0.0000000E+000	1.000000000000000E+000	42	0.0000000E+000	0.0000000E+000	-3.827084120212779E-007	1.2061381E-001	2.6808565E-002	2.3284738E-001	3.3936054E+001	8.0211143E+001	3.4590038E+001	0.0000000E+000	0.0000000E+000	0.0000000E+000	0.0000000E+000	-1.838539915580523E-003	-5.107055563629120E-008
0.0000000E+000	0.0000000E+000	0.0000000E+000	0.0000000E+000	0.0000000E+000	1.183600056247087E+000	-4.0016922E-001	-1.9105170E-003	0.0000000E+000	0.0000000E+000	0.0000000E+000	0.0000000E+000	1.000000000000000E+000	42	0.0000000E+000	0.0000000E+000	-4.311103800206032E-007	1.2061381E-001	2.6808565E-002	2.3284738E-001	3.3936054E+001	8.0211143E+001	3.4590038E+001	0.0000000E+000	0.0000000E+000	0.0000000E+000	0.0000000E+000	-1.742470765212791E-003	-4.840196799932531E-008
0.0000000E+000	0.0000000E+000	0.0000000E+000	0.0000000E+000	0.0000000E+000	1.283600060996832E+000	-4.0017343E-001	-1.9020359E-003	0.0000000E+000	0.0000000E+000	0.0000000E+000	0.0000000E+000	1.000000000000000E+000	42	0.0000000E+000	0.0000000E+000	-4.810902809940040E-007	1.2061381E-001	2.6808565E-002	2.3284738E-001	3.3936054E+001	8.0211143E+001	3.4590038E+001	0.0000000E+000	0.0000000E+000	0.0000000E+000	0.0000000E+000	-1.799276349581389E-003	-4.997990097340082E-008
0.0000000E+000	0.0000000E+000	0.0000000E+000	0.0000000E+000	0.0000000E+000	1.383600065746577E+000	-4.0017751E-001	-1.8937767E-003	0.0000000E+000	0.0000000E+000	0.0000000E+000	0.0000000E+000	1.000000000000000E+000	42	0.0000000E+000	0.0000000E+000	-5.302222245954908E-007	1.2061381E-001	2.6808565E-002	2.3284738E-001	3.3936054E+001	8.0211143E+001	3.4590038E+001	0.0000000E+000	0.0000000E+000	0.0000000E+000	0.0000000E+000	-1.768749885642413E-003	-4.913194360148680E-008
0.0000000E+000	0.0000000E+000	0.0000000E+000	0.0000000E+000	0.0000000E+000	1.484600070543820E+000	-4.0018654E-001	-1.8864042E-003	0.0000000E+000	0.0000000E+000	0.0000000E+000	0.0000000E+000	1.000000000000000E+000	42	0.0000000E+000	0.0000000E+000	-5.811540114267600E-007	1.2061381E-001	2.6808565E-002	2.3284738E-001	3.3936054E+001	8.0211143E+001	3.4590038E+001	0.0000000E+000	0.0000000E+000	0.0000000E+000	0.0000000E+000	-1.815390335482189E-003	-5.093178683126915E-008
0.0000000E+000	0.0000000E+000	0.0000000E+000	0.0000000E+000	0.0000000E+000	1.584600075293565E+000	-4.0018421E-001	-1.8770057E-003	0.0000000E+000	0.0000000E+000	0.0000000E+000	0.0000000E+000	1.000000000000000E+000	42	0.0000000E+000	0.0000000E+000	-6.303769804891190E-007	1.2061381E-001	2.6808565E-002	2.3284738E-001	3.3936054E+001	8.0211143E+001	3.4590038E+001	0.0000000E+000	0.0000000E+000	0.0000000E+000	0.0000000E+000	-1.772026802078170E-003	-4.922296906235908E-008
0.0000000E+000	0.0000000E+000	0.0000000E+000	0.0000000E+000	0.0000000E+000	1.684600080043310E+000	-4.0019417E-001	-1.8703188E-003	0.0000000E+000	0.0000000E+000	0.0000000E+000	0.0000000E+000	1.000000000000000E+000	42	0.0000000E+000	0.0000000E+000	-6.806660886721703E-007	1.2061381E-001	2.6808565E-002	2.3284738E-001	3.3936054E+001	8.0211143E+001	3.4590038E+001	0.0000000E+000	0.0000000E+000	0.0000000E+000	0.0000000E+000	-1.810407808600090E-003	-5.028910818305129E-008
0.0000000E+000	0.0000000E+000	0.0000000E+000	0.0000000E+000	0.0000000E+000	1.784600084793055E+000	-4.0018320E-001	-1.8618826E-003	0.0000000E+000	0.0000000E+000	0.0000000E+000	0.0000000E+000	1.000000000000000E+000	42	0.0000000E+000	0.0000000E+000	-7.307319869841093E-007	1.2061381E-001	2.6808565E-002	2.3284738E-001	3.3936054E+001	8.0211143E+001	3.4590038E+001	0.0000000E+000	0.0000000E+000	0.0000000E+000	0.0000000E+000	-1.802372253621714E-003	-5.006589831193896E-008
0.0000000E+000	0.0000000E+000	0.0000000E+000	0.0000000E+000	0.0000000E+000	1.885600089590298E+000	-4.0017474E-001	-1.8553373E-003	0.0000000E+000	0.0000000E+000	0.0000000E+000	0.0000000E+000	1.000000000000000E+000	42	0.0000000E+000	0.0000000E+000	-7.884538351965805E-007	1.2061381E-001	2.6808565E-002	2.3284738E-001	3.3936054E+001	8.0211143E+001	3.4590038E+001	0.0000000E+000	0.0000000E+000	0.0000000E+000	0.0000000E+000	-2.057412313811785E-003	-5.772184821247117E-008
0.0000000E+000	0.0000000E+000	0.0000000E+000	0.0000000E+000	0.0000000E+000	1.985600094340043E+000	-4.0017897E-001	-1.8502404E-003	0.0000000E+000	0.0000000E+000	0.0000000E+000	0.0000000E+000	1.000000000000000E+000	42	0.0000000E+000	0.0000000E+000	-8.432467334285623E-007	1.2061381E-001	2.6808565E-002	2.3284738E-001	3.3936054E+001	8.0211143E+001	3.4590038E+001	0.0000000E+000	0.0000000E+000	0.0000000E+000	0.0000000E+000	-1.972544242660522E-003	-5.479289823198184E-008
0.0000000E+000	0.0000000E+000	0.0000000E+000	0.0000000E+000	0.0000000E+000	2.085600099089788E+000	-4.0017766E-001	-1.8430793E-003	0.0000000E+000	0.0000000E+000	0.0000000E+000	0.0000000E+000	1.000000000000000E+000	42	0.0000000E+000	0.0000000E+000	-9.028394241060419E-007	1.2061381E-001	2.6808565E-002	2.3284738E-001	3.3936054E+001	8.0211143E+001	3.4590038E+001	0.0000000E+000	0.0000000E+000	0.0000000E+000	0.0000000E+000	-2.145336762491237E-003	-5.959269067747959E-008
0.0000000E+000	0.0000000E+000	0.0000000E+000	0.0000000E+000	0.0000000E+000	2.186600103887031E+000	-4.0018085E-001	-1.8395021E-003	0.0000000E+000	0.0000000E+000	0.0000000E+000	0.0000000E+000	1.000000000000000E+000	42	0.0000000E+000	0.0000000E+000	-9.551607170645108E-007	1.2061381E-001	2.6808565E-002	2.3284738E-001	3.3936054E+001	8.0211143E+001	3.4590038E+001	0.0000000E+000	0.0000000E+000	0.0000000E+000	0.0000000E+000	-1.864917284198291E-003	-5.232129295846888E-008
0.0000000E+000	0.0000000E+000	0.0000000E+000	0.0000000E+000	0.0000000E+000	2.287600108684273E+000	-4.0017658E-001	-1.8297636E-003	0.0000000E+000	0.0000000E+000	0.0000000E+000	0.0000000E+000	1.000000000000000E+000	42	0.0000000E+000	0.0000000E+000	-1.008937801184465E-006	1.2061381E-001	2.6808565E-002	2.3284738E-001	3.3936054E+001	8.0211143E+001	3.4590038E+001	0.0000000E+000	0.0000000E+000	0.0000000E+000	0.0000000E+000	-1.916806867687606E-003	-5.377708411995438E-008
0.0000000E+000	0.0000000E+000	0.0000000E+000	0.0000000E+000	0.0000000E+000	2.387600113434019E+000	-4.0018198E-001	-1.8277668E-003	0.0000000E+000	0.0000000E+000	0.0000000E+000	0.0000000E+000	1.000000000000000E+000	42	0.0000000E+000	0.0000000E+000	-1.059298149808228E-006	1.2061381E-001	2.6808565E-002	2.3284738E-001	3.3936054E+001	8.0211143E+001	3.4590038E+001	0.0000000E+000	0.0000000E+000	0.0000000E+000	0.0000000E+000	-1.812972464343898E-003	-5.036034862376303E-008
0.0000000E+000	0.0000000E+000	0.0000000E+000	0.0000000E+000	0.0000000E+000	2.488600118231261E+000	-4.0017533E-001	-1.8216172E-003	0.0000000E+000	0.0000000E+000	0.0000000E+000	0.0000000E+000	1.000000000000000E+000	42	0.0000000E+000	0.0000000E+000	-1.110710735753906E-006	1.2061381E-001	2.6808565E-002	2.3284738E-001	3.3936054E+001	8.0211143E+001	3.4590038E+001	0.0000000E+000	0.0000000E+000	0.0000000E+000	0.0000000E+000	-1.832527728845142E-003	-5.141258594567763E-008
0.0000000E+000	0.0000000E+000	0.0000000E+000	0.0000000E+000	0.0000000E+000	2.588600122981006E+000	-4.0017727E-001	-1.8179531E-003	0.0000000E+000	0.0000000E+000	0.0000000E+000	0.0000000E+000	1.000000000000000E+000	42	0.0000000E+000	0.0000000E+000	-1.164137467734021E-006	1.2061381E-001	2.6808565E-002	2.3284738E-001	3.3936054E+001	8.0211143E+001	3.4590038E+001	0.0000000E+000	0.0000000E+000	0.0000000E+000	0.0000000E+000	-1.923362259929336E-003	-5.342673198011503E-008
0.0000000E+000	0.0000000E+000	0.0000000E+000	0.0000000E+000	0.0000000E+000	2.689600127778249E+000	-4.0017986E-001	-1.8137814E-003	0.0000000E+000	0.0000000E+000	0.0000000E+000	0.0000000E+000	1.000000000000000E+000	42	0.0000000E+000	0.0000000E+000	-1.222686019029311E-006	1.2061381E-001	2.6808565E-002	2.3284738E-001	3.3936054E+001	8.0211143E+001	3.4590038E+001	0.0000000E+000	0.0000000E+000	0.0000000E+000	0.0000000E+000	-2.086878956948313E-003	-5.854855129529007E-008
0.0000000E+000	0.0000000E+000	0.0000000E+000	0.0000000E+000	0.0000000E+000	2.790600132575491E+000	-4.0018269E-001	-1.8072394E-003	0.0000000E+000	0.0000000E+000	0.0000000E+000	0.0000000E+000	1.000000000000000E+000	42	0.0000000E+000	0.0000000E+000	-1.276295660223165E-006	1.2061381E-001	2.6808565E-002	2.3284738E-001	3.3936054E+001	8.0211143E+001	3.4590038E+001	0.0000000E+000	0.0000000E+000	0.0000000E+000	0.0000000E+000	-1.910838605258595E-003	-5.360964119385401E-008
0.0000000E+000	0.0000000E+000	0.0000000E+000	0.0000000E+000	0.0000000E+000	2.890600137325237E+000	-4.0018782E-001	-1.8044183E-003	0.0000000E+000	0.0000000E+000	0.0000000E+000	0.0000000E+000	1.000000000000000E+000	42	0.0000000E+000	0.0000000E+000	-1.328126803956265E-006	1.2061381E-001	2.6808565E-002	2.3284738E-001	3.3936054E+001	8.0211143E+001	3.4590038E+001	0.0000000E+000	0.0000000E+000	0.0000000E+000	0.0000000E+000	-1.865921085765093E-003	-5.183114373309968E-008
0.0000000E+000	0.0000000E+000	0.0000000E+000	0.0000000E+000	0.0000000E+000	2.991600142122479E+000	-4.0017849E-001	-1.8009876E-003	0.0000000E+000	0.0000000E+000	0.0000000E+000	0.0000000E+000	1.000000000000000E+000	42	0.0000000E+000	0.0000000E+000	-1.379456145637518E-006	1.2061381E-001	2.6808565E-002	2.3284738E-001	3.3936054E+001	8.0211143E+001	3.4590038E+001	0.0000000E+000	0.0000000E+000	0.0000000E+000	0.0000000E+000	-1.829560606689750E-003	-5.132934168125300E-008
0.0000000E+000	0.0000000E+000	0.0000000E+000	0.0000000E+000	0.0000000E+000	3.091600146872224E+000	-4.0018052E-001	-1.7953139E-003	0.0000000E+000	0.0000000E+000	0.0000000E+000	0.0000000E+000	1.000000000000000E+000	42	0.0000000E+000	0.0000000E+000	-1.427627589598653E-006	1.2061381E-001	2.6808565E-002	2.3284738E-001	3.3936054E+001	8.0211143E+001	3.4590038E+001	0.0000000E+000	0.0000000E+000	0.0000000E+000	0.0000000E+000	-1.734171900232112E-003	-4.817144396113494E-008
0.0000000E+000	0.0000000E+000	0.0000000E+000	0.0000000E+000	0.0000000E+000	3.192600151669467E+000	-4.0018547E-001	-1.7938729E-003	0.0000000E+000	0.0000000E+000	0.0000000E+000	0.0000000E+000	1.000000000000000E+000	42	0.0000000E+000	0.0000000E+000	-1.481544488758383E-006	1.2061381E-001	2.6808565E-002	2.3284738E-001	3.3936054E+001	8.0211143E+001	3.4590038E+001	0.0000000E+000	0.0000000E+000	0.0000000E+000	0.0000000E+000	-1.921790373819169E-003	-5.391689915973074E-008
0.0000000E+000	0.0000000E+000	0.0000000E+000	0.0000000E+000	0.0000000E+000	3.293600156466709E+000	-4.0018034E-001	-1.7881420E-003	0.0000000E+000	0.0000000E+000	0.0000000E+000	0.0000000E+000	1.000000000000000E+000	42	0.0000000E+000	0.0000000E+000	-1.535986307162489E-006	1.2061381E-001	2.6808565E-002	2.3284738E-001	3.3936054E+001	8.0211143E+001	3.4590038E+001	0.0000000E+000	0.0000000E+000	0.0000000E+000	0.0000000E+000	-1.940500365799291E-003	-5.444181840410537E-008
0.0000000E+000	0.0000000E+000	0.0000000E+000	0.0000000E+000	0.0000000E+000	3.393600161216455E+000	-4.0018028E-001	-1.7831703E-003	0.0000000E+000	0.0000000E+000	0.0000000E+000	0.0000000E+000	1.000000000000000E+000	42	0.0000000E+000	0.0000000E+000	-1.588089117511281E-006	1.2061381E-001	2.6808565E-002	2.3284738E-001	3.3936054E+001	8.0211143E+001	3.4590038E+001	0.0000000E+000	0.0000000E+000	0.0000000E+000	0.0000000E+000	-1.875701083465521E-003	-5.210281034879284E-008
0.0000000E+000	0.0000000E+000	0.0000000E+000	0.0000000E+000	0.0000000E+000	3.494600166013697E+000	-4.0017778E-001	-1.7819284E-003	0.0000000E+000	0.0000000E+000	0.0000000E+000	0.0000000E+000	1.000000000000000E+000	42	0.0000000E+000	0.0000000E+000	-1.646497423663264E-006	1.2061381E-001	2.6808565E-002	2.3284738E-001	3.3936054E+001	8.0211143E+001	3.4590038E+001	0.0000000E+000	0.0000000E+000	0.0000000E+000	0.0000000E+000	-2.081880120394599E-003	-5.840830615198291E-008
0.0000000E+000	0.0000000E+000	0.0000000E+000	0.0000000E+000	0.0000000E+000	3.594600170763442E+000	-4.0017772E-001	-1.7768006E-003	0.0000000E+000	0.0000000E+000	0.0000000E+000	0.0000000E+000	1.000000000000000E+000	42	0.0000000E+000	0.0000000E+000	-1.703554666706800E-006	1.2061381E-001	2.6808565E-002	2.3284738E-001	3.3936054E+001	8.0211143E+001	3.4590038E+001	0.0000000E+000	0.0000000E+000	0.0000000E+000	0.0000000E+000	-2.054060652004623E-003	-5.705724304353523E-008
0.0000000E+000	0.0000000E+000	0.0000000E+000	0.0000000E+000	0.0000000E+000	3.695600175560685E+000	-4.0017807E-001	-1.7749926E-003	0.0000000E+000	0.0000000E+000	0.0000000E+000	0.0000000E+000	1.000000000000000E+000	42	0.0000000E+000	0.0000000E+000	-1.762428849400875E-006	1.2061381E-001	2.6808565E-002	2.3284738E-001	3.3936054E+001	8.0211143E+001	3.4590038E+001	0.0000000E+000	0.0000000E+000	0.0000000E+000	0.0000000E+000	-2.098485620116109E-003	-5.887418269407545E-008
0.0000000E+000	0.0000000E+000	0.0000000E+000	0.0000000E+000	0.0000000E+000	3.796600180357927E+000	-4.0017679E-001	-1.7710901E-003	0.0000000E+000	0.0000000E+000	0.0000000E+000	0.0000000E+000	1.000000000000000E+000	42	0.0000000E+000	0.0000000E+000	-1.815264282931328E-006	1.2061381E-001	2.6808565E-002	2.3284738E-001	3.3936054E+001	8.0211143E+001	3.4590038E+001	0.0000000E+000	0.0000000E+000	0.0000000E+000	0.0000000E+000	-1.883243085893646E-003	-5.283543353045337E-008
0.0000000E+000	0.0000000E+000	0.0000000E+000	0.0000000E+000	0.0000000E+000	3.896600185107673E+000	-4.0018511E-001	-1.7712975E-003	0.0000000E+000	0.0000000E+000	0.0000000E+000	0.0000000E+000	1.000000000000000E+000	42	0.0000000E+000	0.0000000E+000	-1.862991971638457E-006	1.2061381E-001	2.6808565E-002	2.3284738E-001	3.3936054E+001	8.0211143E+001	3.4590038E+001	0.0000000E+000	0.0000000E+000	0.0000000E+000	0.0000000E+000	-1.718196711846664E-003	-4.772768870712856E-008
0.0000000E+000	0.0000000E+000	0.0000000E+000	0.0000000E+000	0.0000000E+000	3.997600189904915E+000	-4.0018973E-001	-1.7648573E-003	0.0000000E+000	0.0000000E+000	0.0000000E+000	0.0000000E+000	1.000000000000000E+000	42	0.0000000E+000	0.0000000E+000	-1.911522273465948E-006	1.2061381E-001	2.6808565E-002	2.3284738E-001	3.3936054E+001	8.0211143E+001	3.4590038E+001	0.0000000E+000	0.0000000E+000	0.0000000E+000	0.0000000E+000	-1.729792854264678E-003	-4.853030182749121E-008
